!ATF-54143
!s-parameters at Vbe=0.96V Last updated 17/05/01 AR.

# HZ S RI R 50
! Freq         S11           S21            S12            S22
  1e+008          0.910727        -0.0179613      -17.5621        0.134324        -0.000743466    0.00210189      0.944777        0.0759008
  2e+008          0.911154        -0.034333       -17.5513        0.423205        -0.000233734    0.00307675      0.979602        0.0266054
  3e+008          0.910041        -0.0508531      -17.4776        0.658423        2.11612e-005    0.00410348      0.987291        -0.00618606
  4e+008          0.908471        -0.0665667      -17.452         0.854651        0.000228732     0.0051844       0.988898        -0.0308382
  5e+008          0.906899        -0.0829436      -17.4205        1.05835         0.000306391     0.00631368      0.98866         -0.0517958
  6e+008          0.904912        -0.0994921      -17.3744        1.25502         0.000493935     0.00745132      0.987542        -0.0706733
  7e+008          0.902455        -0.115716       -17.3215        1.44281         0.000679626     0.00861648      0.985892        -0.0884371
  8e+008          0.899784        -0.131672       -17.3057        1.62516         0.000919675     0.00974621      0.983695        -0.105298
  9e+008          0.896889        -0.147557       -17.2654        1.83656         0.00113242      0.0108726       0.981002        -0.12193
  1e+009          0.89358         -0.164646       -17.1871        2.04378         0.00140953      0.0120118       0.978334        -0.137735
  2e+009          0.84318         -0.316009       -16.594         3.89246         0.00514249      0.0228153       0.931441        -0.283051
  3e+009          0.765848        -0.449005       -15.6442        5.53859         0.0107285       0.0322981       0.860689        -0.405448
  4e+009          0.670459        -0.556992       -14.465         6.87008         0.0175945       0.0400569       0.774345        -0.503989
  5e+009          0.56545         -0.639595       -13.1955        7.89067         0.0252477       0.0460366       0.681283        -0.579834
  6e+009          0.457684        -0.699922       -11.8798        8.62223         0.0330397       0.0502816       0.585099        -0.634655
  7e+009          0.351362        -0.738674       -10.5876        9.08886         0.0407931       0.0529955       0.489783        -0.671539
  8e+009          0.251993        -0.759085       -9.36231        9.37102         0.0480355       0.0543135       0.401487        -0.692297
  9e+009          0.159799        -0.766943       -8.25068        9.46297         0.0547113       0.0547662       0.319321        -0.700605
  1e+010          0.0769351       -0.764679       -7.20533        9.48791         0.0608206       0.054278        0.245491        -0.700556
  1.1e+010        0.00214117      -0.754376       -6.34463        9.38332         0.066196        0.0533432       0.178294        -0.693922
  1.2e+010        -0.0650825      -0.737487       -5.54112        9.19105         0.0709833       0.0518379       0.116839        -0.681683
  1.3e+010        -0.122556       -0.715108       -4.81612        8.96857         0.0748434       0.050097        0.0650887       -0.664243
  1.4e+010        -0.172373       -0.691894       -4.20894        8.72917         0.0783609       0.0483311       0.0198861       -0.644665
  1.5e+010        -0.214972       -0.668006       -3.64726        8.42259         0.081438        0.0466635       -0.0174918      -0.625554
  1.6e+010        -0.252479       -0.646094       -3.12991        8.17408         0.0840181       0.0447402       -0.0535367      -0.607373
  1.7e+010        -0.286992       -0.622503       -2.73948        7.92176         0.086564        0.0430284       -0.0831273      -0.588622
  1.8e+010        -0.314857       -0.599459       -2.367          7.61894         0.088283        0.0410663       -0.109542       -0.568979
  1.9e+010        -0.340379       -0.577912       -2.00916        7.38513         0.0896602       0.0394375       -0.133446       -0.552231
  2e+010          -0.363673       -0.557896       -1.77884        7.14621         0.0912404       0.037954        -0.153886       -0.534299
  2.1e+010        -0.383358       -0.537616       -1.50212        6.85019         0.092186        0.0364754       -0.172882       -0.517586
  2.2e+010        -0.401767       -0.519017       -1.25159        6.66334         0.0937452       0.035626        -0.187526       -0.502924
  2.3e+010        -0.417254       -0.501602       -1.08241        6.42986         0.094803        0.0343064       -0.202676       -0.489067
  2.4e+010        -0.432526       -0.484317       -0.866006       6.20969         0.0960371       0.0329606       -0.216093       -0.475858
  2.5e+010        -0.446574       -0.469975       -0.704376       6.02445         0.0967561       0.0315053       -0.230507       -0.463087
  2.6e+010        -0.459611       -0.452719       -0.588602       5.82926         0.0979726       0.0303524       -0.242047       -0.451152
  2.7e+010        -0.471246       -0.437933       -0.459978       5.65755         0.0985109       0.0296125       -0.250923       -0.438436
  2.8e+010        -0.481277       -0.422723       -0.307877       5.50015         0.0988759       0.0279171       -0.262186       -0.425915
  2.9e+010        -0.490545       -0.409245       -0.213665       5.2865          0.0989468       0.0275435       -0.269814       -0.415343
  3e+010          -0.499285       -0.397629       -0.144766       5.16429         0.0997939       0.0274412       -0.27729        -0.407183
  3.1e+010        -0.509306       -0.384709       -0.00730148     5.03647         0.101081        0.025662        -0.286398       -0.39772
  3.2e+010        -0.5176         -0.372149       0.0960727       4.87162         0.101888        0.0247596       -0.29518        -0.387945
  3.3e+010        -0.525445       -0.359883       0.15781         4.72974         0.102052        0.023586        -0.302416       -0.379507
  3.4e+010        -0.530896       -0.347632       0.202387        4.61781         0.102563        0.0229778       -0.308001       -0.370908
  3.5e+010        -0.537829       -0.336638       0.284959        4.51564         0.103348        0.0214829       -0.315514       -0.362039
  3.6e+010        -0.544655       -0.325105       0.375738        4.37649         0.103129        0.0203498       -0.321263       -0.353655
  3.7e+010        -0.549322       -0.315486       0.400749        4.25864         0.103851        0.0199331       -0.325898       -0.346067
  3.8e+010        -0.554546       -0.303561       0.468069        4.13797         0.104134        0.0189698       -0.3314         -0.338155
  3.9e+010        -0.558554       -0.293704       0.534087        4.06653         0.10407         0.018145        -0.336058       -0.331048
  4e+010          -0.562207       -0.284394       0.586677        3.92366         0.104019        0.0168681       -0.340575       -0.322726
  4.1e+010        -0.566212       -0.275629       0.618399        3.83759         0.104582        0.0159887       -0.344932       -0.316583
  4.2e+010        -0.570899       -0.264777       0.6778          3.74924         0.10425         0.0152633       -0.349172       -0.30902
  4.3e+010        -0.573153       -0.255369       0.674155        3.65499         0.105156        0.015399        -0.350408       -0.304048
  4.4e+010        -0.575953       -0.248549       0.710872        3.57121         0.10517         0.0131013       -0.355962       -0.297679
  4.5e+010        -0.579685       -0.241503       0.752775        3.48886         0.104784        0.0129358       -0.358739       -0.291854
  4.6e+010        -0.582834       -0.233221       0.797001        3.38624         0.105607        0.0122312       -0.361881       -0.286363
  4.7e+010        -0.587069       -0.224495       0.795976        3.33642         0.105463        0.0114673       -0.363446       -0.281666
  4.8e+010        -0.590286       -0.218276       0.834621        3.2755          0.10564         0.00993529      -0.368097       -0.277584
  4.9e+010        -0.590394       -0.209354       0.889708        3.18605         0.105202        0.0104009       -0.37065        -0.272628
  5e+010          -0.596091       -0.203512       0.874155        3.11049         0.106403        0.00916588      -0.374743       -0.267636
  5.1e+010        -0.598955       -0.195028       0.891093        3.07077         0.106501        0.00694289      -0.378748       -0.263765
  5.2e+010        -0.596992       -0.185246       0.983751        2.98043         0.104444        0.00545289      -0.378818       -0.255114
  5.3e+010        -0.601067       -0.179577       0.933239        2.88564         0.104707        0.00676263      -0.382279       -0.253745
  5.4e+010        -0.602998       -0.172646       0.95836         2.86593         0.104805        0.00533017      -0.384243       -0.247658
  5.5e+010        -0.600748       -0.167605       0.998421        2.80296         0.104044        0.00487531      -0.387016       -0.243214
  5.6e+010        -0.601312       -0.164603       1.01425         2.72535         0.102778        0.00467876      -0.384932       -0.242199
  5.7e+010        -0.606027       -0.161465       0.99409         2.68509         0.104285        0.00559321      -0.389693       -0.240308
  5.8e+010        -0.60959        -0.154208       1.05863         2.64391         0.104951        0.00434477      -0.395499       -0.237728
  5.9e+010        -0.61138        -0.144324       1.07145         2.55134         0.105126        0.00318908      -0.398627       -0.230613
  6e+010          -0.612261       -0.138589       1.04501         2.52654         0.104465        0.000299539     -0.400813       -0.225843
  6.1e+010        -0.610701       -0.135288       1.08864         2.45724         0.101858        0.000922464     -0.401315       -0.222143
  6.2e+010        -0.614217       -0.128726       1.09754         2.40668         0.103706        0.00241098      -0.403134       -0.220266
  6.3e+010        -0.614902       -0.126221       1.07935         2.34445         0.10405         -0.000208341    -0.405968       -0.214345
  6.4e+010        -0.618976       -0.116072       1.1092          2.35087         0.103712        -0.00154293     -0.406895       -0.21219
  6.5e+010        -0.616559       -0.115226       1.13526         2.23111         0.101187        -0.00106692     -0.408211       -0.209067
