!ATF-54143
!s-parameters at Vbe=0.78V Last updated 17/05/01 AR.

# HZ S RI R 50
! Freq         S11           S21            S12            S22
  1e+008          0.996556        -0.00612777     -2.20782        -0.00403262     1.70798e-005    0.00126266      0.998838        -0.00452896
  2e+008          0.997525        -0.01188        -2.16387        0.00692958      -4.00192e-007   0.00235935      0.999477        -0.00896073
  3e+008          0.997203        -0.0177167      -2.16766        0.0191752       8.32864e-005    0.0035609       0.999278        -0.0129321
  4e+008          0.996915        -0.0228037      -2.14991        0.0317681       7.5157e-005     0.0048049       0.999349        -0.0181683
  5e+008          0.996636        -0.0288846      -2.16627        0.0439463       0.00014426      0.00603121      0.999236        -0.0226824
  6e+008          0.996486        -0.0346016      -2.16663        0.0546518       0.000240937     0.00720332      0.999074        -0.0273365
  7e+008          0.996147        -0.0401667      -2.16573        0.068525        0.00030952      0.00842436      0.998861        -0.0319778
  8e+008          0.995742        -0.0468229      -2.17161        0.0830257       0.000414902     0.00960361      0.998632        -0.0363523
  9e+008          0.995591        -0.0515412      -2.1597         0.0988514       0.000478777     0.0108354       0.998257        -0.0412354
  1e+009          0.995046        -0.0575752      -2.17101        0.112607        0.000550934     0.0119756       0.998186        -0.0454447
  2e+009          0.988702        -0.113938       -2.12911        0.232798        0.00221014      0.0238687       0.993018        -0.0907005
  3e+009          0.978372        -0.16965        -2.12917        0.344373        0.00488046      0.035443        0.985091        -0.13486
  4e+009          0.96374         -0.224          -2.10352        0.466837        0.00851868      0.0467054       0.974291        -0.177836
  5e+009          0.946058        -0.276315       -2.05017        0.573965        0.0131655       0.057553        0.961759        -0.219746
  6e+009          0.925101        -0.326334       -1.99561        0.676903        0.0186569       0.0678185       0.945892        -0.260038
  7e+009          0.900759        -0.375203       -1.94169        0.77178         0.0250583       0.0775852       0.928171        -0.299212
  8e+009          0.873695        -0.421044       -1.88361        0.870276        0.0320765       0.0864646       0.908459        -0.335949
  9e+009          0.844071        -0.46442        -1.8141         0.952487        0.0398061       0.0946564       0.886975        -0.370816
  1e+010          0.813281        -0.504727       -1.73654        1.03235         0.0480426       0.101962        0.863712        -0.40392
  1.1e+010        0.780043        -0.540866       -1.6694         1.10296         0.0565943       0.108581        0.839479        -0.434444
  1.2e+010        0.744336        -0.575699       -1.59612        1.17064         0.0657472       0.11445         0.813853        -0.463565
  1.3e+010        0.707392        -0.606146       -1.51858        1.23451         0.0748573       0.11938         0.788601        -0.489146
  1.4e+010        0.671668        -0.633001       -1.43396        1.27904         0.0847623       0.123214        0.761008        -0.514132
  1.5e+010        0.634969        -0.657635       -1.34134        1.31334         0.0942865       0.12608         0.733971        -0.536009
  1.6e+010        0.597726        -0.679959       -1.26069        1.35762         0.10364         0.128387        0.706018        -0.55636
  1.7e+010        0.562013        -0.699081       -1.17875        1.38271         0.113166        0.129882        0.679417        -0.575158
  1.8e+010        0.524776        -0.715414       -1.09878        1.40895         0.122095        0.130399        0.651681        -0.590671
  1.9e+010        0.488924        -0.730072       -1.02002        1.43184         0.130811        0.130831        0.62435         -0.606736
  2e+010          0.454052        -0.743033       -0.950291       1.44609         0.13936         0.130484        0.598196        -0.618479
  2.1e+010        0.418561        -0.752902       -0.878226       1.45674         0.147583        0.129348        0.570832        -0.629716
  2.2e+010        0.384963        -0.761211       -0.799904       1.46455         0.155673        0.128075        0.546341        -0.640302
  2.3e+010        0.353214        -0.767625       -0.729578       1.46483         0.163096        0.126235        0.521147        -0.64969
  2.4e+010        0.321198        -0.772979       -0.660591       1.46344         0.170299        0.124139        0.497838        -0.657199
  2.5e+010        0.29099         -0.778994       -0.595253       1.46152         0.177106        0.121835        0.472927        -0.665551
  2.6e+010        0.260403        -0.781058       -0.535595       1.45166         0.184279        0.119116        0.44947         -0.672547
  2.7e+010        0.23067         -0.783084       -0.478246       1.44429         0.190406        0.116214        0.428445        -0.676233
  2.8e+010        0.201573        -0.783333       -0.419342       1.43598         0.196298        0.112074        0.402712        -0.681037
  2.9e+010        0.174901        -0.783885       -0.368486       1.42109         0.201099        0.109125        0.381546        -0.683841
  3e+010          0.149967        -0.783623       -0.319409       1.40701         0.20641         0.106575        0.362008        -0.688108
  3.1e+010        0.122278        -0.782124       -0.262642       1.39535         0.211955        0.102627        0.342506        -0.68934
  3.2e+010        0.0985404       -0.779802       -0.213737       1.37433         0.217282        0.0990405       0.321538        -0.69279
  3.3e+010        0.0740781       -0.776164       -0.169432       1.35659         0.222236        0.094916        0.302206        -0.695235
  3.4e+010        0.0519426       -0.771861       -0.127002       1.33905         0.226397        0.0909842       0.283724        -0.695948
  3.5e+010        0.0295219       -0.767401       -0.0825788      1.3205          0.230772        0.0865388       0.26525         -0.695933
  3.6e+010        0.00618517      -0.763027       -0.0432321      1.29935         0.234809        0.0819104       0.247447        -0.696452
  3.7e+010        -0.0128603      -0.75955        -0.00897846     1.27755         0.238443        0.0776799       0.230628        -0.696772
  3.8e+010        -0.0328004      -0.754055       0.0282359       1.2553          0.242047        0.0728917       0.213798        -0.696659
  3.9e+010        -0.0525341      -0.748459       0.0635927       1.23522         0.244631        0.0682229       0.197447        -0.695579
  4e+010          -0.0714582      -0.743324       0.095261        1.21095         0.247443        0.0632959       0.181541        -0.694136
  4.1e+010        -0.0910789      -0.736309       0.126689        1.19047         0.250307        0.058732        0.166227        -0.694011
  4.2e+010        -0.107645       -0.729143       0.156972        1.16668         0.252788        0.0538836       0.150041        -0.691481
  4.3e+010        -0.125141       -0.721033       0.180228        1.14145         0.254714        0.0493019       0.137616        -0.690596
  4.4e+010        -0.140115       -0.716393       0.20627         1.1206          0.256915        0.044342        0.122572        -0.688486
  4.5e+010        -0.155391       -0.709923       0.229064        1.10023         0.25818         0.0404165       0.109431        -0.686448
  4.6e+010        -0.171508       -0.704022       0.252827        1.07388         0.260389        0.0353286       0.096486        -0.684888
  4.7e+010        -0.187972       -0.695762       0.27196         1.05411         0.261588        0.030859        0.0852131       -0.68334
  4.8e+010        -0.201113       -0.690625       0.293347        1.03495         0.262886        0.0260639       0.0718633       -0.682306
  4.9e+010        -0.210973       -0.681446       0.31187         1.00953         0.263083        0.0216123       0.0599647       -0.680278
  5e+010          -0.229183       -0.675966       0.328809        0.991976        0.264978        0.0170938       0.0469342       -0.678919
  5.1e+010        -0.240831       -0.666779       0.348301        0.971188        0.265968        0.0117402       0.0343235       -0.678096
  5.2e+010        -0.251936       -0.658754       0.366216        0.947447        0.265195        0.00619339      0.0239234       -0.673297
  5.3e+010        -0.263912       -0.652543       0.377858        0.926648        0.265674        0.00309928      0.0102251       -0.673873
  5.4e+010        -0.275992       -0.644377       0.395306        0.907961        0.265758        -0.00171746     0.000130522     -0.669577
  5.5e+010        -0.283186       -0.638091       0.409531        0.887649        0.264758        -0.00592783     -0.0124068      -0.665207
  5.6e+010        -0.293426       -0.63346        0.416395        0.869196        0.263222        -0.00881388     -0.0178045      -0.664799
  5.7e+010        -0.305912       -0.629712       0.431516        0.856735        0.265141        -0.010875       -0.0286914      -0.664366
  5.8e+010        -0.316565       -0.623893       0.449755        0.835342        0.267256        -0.0148642      -0.0406933      -0.664959
  5.9e+010        -0.328382       -0.614353       0.464549        0.81122         0.267877        -0.0202578      -0.0520948      -0.661143
  6e+010          -0.339207       -0.606813       0.474072        0.79277         0.267307        -0.0270555      -0.0629301      -0.658047
  6.1e+010        -0.348288       -0.601557       0.485333        0.774915        0.264558        -0.031098       -0.0730013      -0.654954
  6.2e+010        -0.357152       -0.593116       0.496829        0.753749        0.264901        -0.033415       -0.0817184      -0.654438
  6.3e+010        -0.365503       -0.589679       0.50399         0.733373        0.264485        -0.0388651      -0.093641       -0.64967
  6.4e+010        -0.377703       -0.578544       0.515993        0.714532        0.264124        -0.0429304      -0.0985852      -0.650692
  6.5e+010        -0.385807       -0.573338       0.521431        0.69328         0.260353        -0.0477192      -0.111455       -0.646512