!ATF-54143
!s-parameters at Vbe=0.88V Last updated 17/05/01 AR.

# HZ S RI R 50
! Freq         S11           S21            S12            S22
  1e+008           0.975091        -0.0130554      -12.6261        0.271714        8.9331e-006     0.00133572      0.98344         0.014537
  2e+008           0.976077        -0.0262224      -12.5426        0.314077        -7.78538e-006   0.00246457      0.993618        -0.00625219
  3e+008           0.975559        -0.0395294      -12.5024        0.391497        7.81673e-005    0.00363533      0.995774        -0.0225346
  4e+008           0.974814        -0.0519087      -12.5022        0.486371        0.000158947     0.00480763      0.996163        -0.0365952
  5e+008           0.973704        -0.065375       -12.4951        0.592387        0.000269604     0.0060353       0.995598        -0.0497981
  6e+008           0.972639        -0.0784682      -12.484         0.696791        0.000390348     0.00721411      0.99491         -0.0622441
  7e+008           0.971223        -0.0913233      -12.4643        0.803887        0.000518373     0.00842856      0.993856        -0.0744605
  8e+008           0.969503        -0.104172       -12.461         0.907168        0.000664974     0.00958717      0.992586        -0.0862297
  9e+008           0.967726        -0.117151       -12.4444        1.03428         0.00088056      0.0107664       0.99104         -0.0981447
  1e+009           0.965629        -0.130354       -12.4087        1.14396         0.00104095      0.011928        0.989558        -0.109519
  2e+009           0.9344          -0.255029       -12.157         2.24319         0.00409389      0.023328        0.962099        -0.220157
  3e+009           0.884444        -0.370438       -11.7293        3.26887         0.00881223      0.0337608       0.919067        -0.321057
  4e+009           0.819237        -0.472171       -11.1582        4.18806         0.0149095       0.0430101       0.863324        -0.409849
  5e+009           0.74364         -0.559259       -10.5024        4.97096         0.0220703       0.0508447       0.799204        -0.485713
  6e+009           0.661044        -0.631334       -9.76659        5.60742         0.0298992       0.0571659       0.729025        -0.548725
  7e+009           0.574796        -0.688209       -9.00868        6.10014         0.0381126       0.0621005       0.655111        -0.59884
  8e+009           0.488924        -0.728964       -8.23564        6.4832          0.0462623       0.0654845       0.582169        -0.636502
  9e+009           0.404407        -0.758531       -7.49825        6.73494         0.0542408       0.0677805       0.51031         -0.663155
  1e+010           0.324801        -0.777296       -6.76768        6.92665         0.0619249       0.0689349       0.441969        -0.681276
  1.1e+010         0.248247        -0.786832       -6.12514        7.0256          0.0690413       0.0692734       0.376851        -0.69186
  1.2e+010         0.176618        -0.787918       -5.50545        7.03653         0.0757982       0.0688197       0.314498        -0.69576
  1.3e+010         0.111142        -0.78173        -4.91428        7.01168         0.081636        0.0677034       0.258964        -0.692841
  1.4e+010         0.0528537       -0.77133        -4.40548        6.94423         0.0871141       0.0662243       0.207941        -0.685454
  1.5e+010         -9.47243e-005   -0.757811       -3.90959        6.81486         0.0919398       0.0645993       0.164126        -0.675969
  1.6e+010         -0.0470375      -0.7442         -3.45104        6.70506         0.0962771       0.06259         0.12164         -0.666224
  1.7e+010         -0.0912621      -0.72796        -3.08435        6.57979         0.100364        0.0606502       0.0854343       -0.654314
  1.8e+010         -0.129003       -0.710021       -2.72829        6.4024          0.103607        0.0582276       0.0521494       -0.640154
  1.9e+010         -0.163539       -0.692516       -2.38909        6.26583         0.106357        0.0561213       0.0207325       -0.628079
  2e+010           -0.195381       -0.675422       -2.14891        6.11259         0.109119        0.0540165       -0.00619714     -0.613938
  2.1e+010         -0.223442       -0.657319       -1.87363        5.91287         0.111144        0.0518645       -0.0317444      -0.59957
  2.2e+010         -0.249567       -0.639896       -1.6244         5.78831         0.113659        0.0503817       -0.0522712      -0.586878
  2.3e+010         -0.272161       -0.623432       -1.43946        5.62017         0.115673        0.048373        -0.072583       -0.574552
  2.4e+010         -0.293783       -0.606789       -1.22163        5.46067         0.117621        0.0463908       -0.0912074      -0.562512
  2.5e+010         -0.313757       -0.592736       -1.05118        5.32321         0.119145        0.044308        -0.110117       -0.551171
  2.6e+010         -0.332606       -0.575981       -0.916972       5.17331         0.121076        0.0424774       -0.126206       -0.539916
  2.7e+010         -0.350046       -0.560609       -0.776764       5.0408          0.122094        0.0409934       -0.138971       -0.527557
  2.8e+010         -0.365596       -0.544858       -0.620835       4.91691         0.123193        0.0385155       -0.155312       -0.515212
  2.9e+010         -0.379661       -0.531133       -0.511019       4.74845         0.12356         0.0374466       -0.16663        -0.504447
  3e+010           -0.391723       -0.518623       -0.426946       4.6486          0.124936        0.0369732       -0.177129       -0.496222
  3.1e+010         -0.407607       -0.504797       -0.289686       4.54633         0.126788        0.0344747       -0.189443       -0.486772
  3.2e+010         -0.419134       -0.491895       -0.180144       4.41218         0.127648        0.0328934       -0.201354       -0.477099
  3.3e+010         -0.430417       -0.478732       -0.104152       4.29363         0.128516        0.0310507       -0.211826       -0.468522
  3.4e+010         -0.439354       -0.465102       -0.0418298      4.19904         0.129385        0.0299804       -0.220191       -0.459435
  3.5e+010         -0.449681       -0.453447       0.0430243       4.11017         0.130485        0.027738        -0.230024       -0.45027
  3.6e+010         -0.460008       -0.441181       0.136191        3.99493         0.130716        0.0258215       -0.238761       -0.44165
  3.7e+010         -0.467715       -0.429855       0.178823        3.89438         0.131594        0.0247298       -0.24578        -0.433674
  3.8e+010         -0.476156       -0.417153       0.249146        3.79157         0.132044        0.0230742       -0.253747       -0.425288
  3.9e+010         -0.482416       -0.40716        0.317215        3.72613         0.132396        0.0218443       -0.260646       -0.417364
  4e+010           -0.489631       -0.396247       0.376344        3.60547         0.132441        0.0195028       -0.267298       -0.408906
  4.1e+010         -0.497119       -0.385427       0.418414        3.52852         0.133133        0.0182276       -0.27361        -0.402412
  4.2e+010         -0.502478       -0.373904       0.479422        3.44888         0.132914        0.0168626       -0.279821       -0.393414
  4.3e+010         -0.507595       -0.362691       0.490055        3.36437         0.133832        0.0161899       -0.282957       -0.388292
  4.4e+010         -0.512643       -0.355898       0.53106         3.29018         0.13414         0.0134447       -0.290336       -0.381396
  4.5e+010         -0.517683       -0.346201       0.575656        3.21732         0.133511        0.0125334       -0.294268       -0.375241
  4.6e+010         -0.523062       -0.338048       0.622945        3.12755         0.134428        0.0115346       -0.298674       -0.369044
  4.7e+010         -0.529203       -0.32811        0.630883        3.07987         0.134581        0.0105661       -0.302389       -0.364015
  4.8e+010         -0.533536       -0.321057       0.671262        3.02428         0.134551        0.00782314      -0.307964       -0.35932
  4.9e+010         -0.535558       -0.310741       0.723055        2.94555         0.134185        0.00802361      -0.312252       -0.353982
  5e+010           -0.543534       -0.304965       0.721611        2.87947         0.135115        0.00612291      -0.317498       -0.348499
  5.1e+010         -0.547707       -0.294981       0.744165        2.83975         0.135529        0.00336493      -0.322959       -0.344049
  5.2e+010         -0.546984       -0.28435        0.821989        2.76022         0.133341        0.00137041      -0.324134       -0.335307
  5.3e+010         -0.551952       -0.276862       0.792265        2.67666         0.133656        0.00220826      -0.329376       -0.333143
  5.4e+010         -0.555571       -0.27002        0.820034        2.65349         0.133477        0.000140772     -0.332252       -0.326562
  5.5e+010         -0.55429        -0.263118       0.857081        2.59512         0.132605        -0.000580146    -0.336167       -0.321151
  5.6e+010         -0.555715       -0.25916        0.873502        2.52869         0.13129         -0.00118443     -0.335018       -0.319792
  5.7e+010         -0.562201       -0.256366       0.866169        2.49206         0.132741        -0.000587321    -0.340503       -0.317577
  5.8e+010         -0.567125       -0.248256       0.923205        2.45271         0.133748        -0.00256902     -0.347466       -0.314499
  5.9e+010         -0.570473       -0.23708        0.94199         2.37186         0.133661        -0.00413397     -0.351351       -0.307327
  6e+010           -0.57234        -0.229401       0.926839        2.34425         0.132853        -0.00743781     -0.355139       -0.302237
  6.1e+010         -0.57211        -0.226093       0.965191        2.28271         0.129933        -0.00746263     -0.356132       -0.29769
  6.2e+010         -0.5758         -0.219177       0.977988        2.2353          0.132002        -0.00619296     -0.358739       -0.295213
  6.3e+010         -0.577498       -0.215523       0.968246        2.17877         0.132029        -0.00944833     -0.362709       -0.28903
  6.4e+010         -0.582742       -0.204985       0.997703        2.1757          0.131634        -0.0108064      -0.364159       -0.287011
  6.5e+010         -0.581618       -0.203154       1.02135         2.07584         0.128474        -0.0109494      -0.366468       -0.283237