Index       V(C)              I(VC)             V(DT)      
0        0.00000000e+00    1.24238848e-06    1.02441281e-03
1        5.00000000e-02   -3.37938349e-05    1.22502555e-03
2        1.00000000e-01   -2.19846171e-04    2.81604566e-03
3        1.50000000e-01   -7.86621979e-04    1.00712691e-02
4        2.00000000e-01   -1.61723792e-03    2.55163849e-02
5        2.50000000e-01   -2.26672492e-03    4.37780398e-02
6        3.00000000e-01   -2.53046134e-03    5.82186985e-02
7        3.50000000e-01   -2.60334836e-03    6.96225793e-02
8        4.00000000e-01   -2.63204460e-03    8.02463504e-02
9        4.50000000e-01   -2.65099212e-03    9.07561383e-02
10       5.00000000e-01   -2.66617746e-03    1.01266906e-01
11       5.50000000e-01   -2.67889737e-03    1.11789843e-01
12       6.00000000e-01   -2.68970770e-03    1.22322234e-01
13       6.50000000e-01   -2.69900332e-03    1.32861850e-01
14       7.00000000e-01   -2.70709922e-03    1.43408190e-01
15       7.50000000e-01   -2.71424626e-03    1.53961867e-01
16       8.00000000e-01   -2.72064120e-03    1.64524004e-01
17       8.50000000e-01   -2.72643632e-03    1.75095881e-01
18       9.00000000e-01   -2.73174957e-03    1.85678683e-01
19       9.50000000e-01   -2.73667152e-03    1.96273450e-01
20       1.00000000e+00   -2.74127213e-03    2.06881028e-01
21       1.05000000e+00   -2.74560554e-03    2.17502067e-01
22       1.10000000e+00   -2.74971387e-03    2.28137037e-01
23       1.15000000e+00   -2.75363007e-03    2.38786245e-01
24       1.20000000e+00   -2.75738004e-03    2.49449863e-01
25       1.25000000e+00   -2.76098426e-03    2.60127942e-01
26       1.30000000e+00   -2.76445907e-03    2.70820433e-01
27       1.35000000e+00   -2.76781755e-03    2.81527205e-01
28       1.40000000e+00   -2.77107026e-03    2.92248060e-01
29       1.45000000e+00   -2.77422582e-03    3.02982744e-01
30       1.50000000e+00   -2.77729129e-03    3.13730959e-01
31       1.55000000e+00   -2.78027257e-03    3.24492377e-01
32       1.60000000e+00   -2.78317459e-03    3.35266644e-01
33       1.65000000e+00   -2.78600160e-03    3.46053392e-01
34       1.70000000e+00   -2.78875725e-03    3.56852244e-01
35       1.75000000e+00   -2.79144480e-03    3.67662824e-01
36       1.80000000e+00   -2.79406715e-03    3.78484759e-01
37       1.85000000e+00   -2.79662697e-03    3.89317684e-01
38       1.90000000e+00   -2.79912674e-03    4.00161252e-01
39       1.95000000e+00   -2.80156883e-03    4.11015130e-01
40       2.00000000e+00   -2.80395546e-03    4.21879006e-01
41       2.05000000e+00   -2.80628883e-03    4.32752591e-01
42       2.10000000e+00   -2.80857106e-03    4.43635622e-01
43       2.15000000e+00   -2.81080422e-03    4.54527857e-01
44       2.20000000e+00   -2.81299038e-03    4.65429086e-01
45       2.25000000e+00   -2.81513156e-03    4.76339118e-01
46       2.30000000e+00   -2.81722974e-03    4.87257793e-01
47       2.35000000e+00   -2.81928689e-03    4.98184973e-01
48       2.40000000e+00   -2.82130496e-03    5.09120545e-01
49       2.45000000e+00   -2.82328582e-03    5.20064416e-01
50       2.50000000e+00   -2.82523134e-03    5.31016516e-01
51       2.55000000e+00   -2.82714332e-03    5.41976795e-01
52       2.60000000e+00   -2.82902353e-03    5.52945216e-01
53       2.65000000e+00   -2.83087367e-03    5.63921763e-01
54       2.70000000e+00   -2.83269539e-03    5.74906430e-01
55       2.75000000e+00   -2.83449027e-03    5.85899226e-01
56       2.80000000e+00   -2.83625985e-03    5.96900168e-01
57       2.85000000e+00   -2.83800557e-03    6.07909283e-01
58       2.90000000e+00   -2.83972884e-03    6.18926607e-01
59       2.95000000e+00   -2.84143097e-03    6.29952178e-01
60       3.00000000e+00   -2.84311323e-03    6.40986044e-01
61       3.05000000e+00   -2.84477680e-03    6.52028253e-01
62       3.10000000e+00   -2.84642282e-03    6.63078858e-01
63       3.15000000e+00   -2.84805235e-03    6.74137910e-01
64       3.20000000e+00   -2.84966638e-03    6.85205466e-01
65       3.25000000e+00   -2.85126586e-03    6.96281579e-01
66       3.30000000e+00   -2.85285167e-03    7.07366305e-01
67       3.35000000e+00   -2.85442464e-03    7.18459697e-01
68       3.40000000e+00   -2.85598553e-03    7.29561808e-01
69       3.45000000e+00   -2.85753507e-03    7.40672689e-01
70       3.50000000e+00   -2.85907394e-03    7.51792389e-01
71       3.55000000e+00   -2.86060277e-03    7.62920956e-01
72       3.60000000e+00   -2.86212213e-03    7.74058436e-01
73       3.65000000e+00   -2.86363259e-03    7.85204871e-01
74       3.70000000e+00   -2.86513464e-03    7.96360302e-01
75       3.75000000e+00   -2.86662876e-03    8.07524769e-01
76       3.80000000e+00   -2.86811539e-03    8.18698307e-01
77       3.85000000e+00   -2.86959494e-03    8.29880951e-01
78       3.90000000e+00   -2.87106780e-03    8.41072733e-01
79       3.95000000e+00   -2.87253432e-03    8.52273683e-01
80       4.00000000e+00   -2.87399483e-03    8.63483830e-01
81       4.05000000e+00   -2.87544964e-03    8.74703199e-01
82       4.10000000e+00   -2.87689905e-03    8.85931816e-01
83       4.15000000e+00   -2.87834331e-03    8.97169703e-01
84       4.20000000e+00   -2.87978268e-03    9.08416883e-01
85       4.25000000e+00   -2.88121740e-03    9.19673374e-01
86       4.30000000e+00   -2.88264769e-03    9.30939196e-01
87       4.35000000e+00   -2.88407375e-03    9.42214368e-01
88       4.40000000e+00   -2.88549579e-03    9.53498907e-01
89       4.45000000e+00   -2.88691399e-03    9.64792829e-01
90       4.50000000e+00   -2.88832852e-03    9.76096150e-01
91       4.55000000e+00   -2.88973955e-03    9.87408886e-01
92       4.60000000e+00   -2.89114724e-03    9.98731052e-01
93       4.65000000e+00   -2.89255175e-03    1.01006267e+00
94       4.70000000e+00   -2.89395321e-03    1.02140374e+00
95       4.75000000e+00   -2.89535178e-03    1.03275429e+00
96       4.80000000e+00   -2.89674758e-03    1.04411434e+00
97       4.85000000e+00   -2.89814076e-03    1.05548390e+00
98       4.90000000e+00   -2.89953144e-03    1.06686299e+00
99       4.95000000e+00   -2.90091975e-03    1.07825163e+00
100      5.00000000e+00   -2.90230583e-03    1.08964985e+00


0        0.00000000e+00    2.55481902e-06    2.10565779e-03
1        5.00000000e-02   -6.61506626e-05    2.50023568e-03
2        1.00000000e-01   -3.91952613e-04    5.32490686e-03
3        1.50000000e-01   -1.22536186e-03    1.62745964e-02
4        2.00000000e-01   -2.39875132e-03    3.85457157e-02
5        2.50000000e-01   -3.52302199e-03    6.86727854e-02
6        3.00000000e-01   -4.24375653e-03    9.81285338e-02
7        3.50000000e-01   -4.51559195e-03    1.21187435e-01
8        4.00000000e-01   -4.60207335e-03    1.40717533e-01
9        4.50000000e-01   -4.64766433e-03    1.59514771e-01
10       5.00000000e-01   -4.68399721e-03    1.78306495e-01
11       5.50000000e-01   -4.71650346e-03    1.97212792e-01
12       6.00000000e-01   -4.74628507e-03    2.16240232e-01
13       6.50000000e-01   -4.77375070e-03    2.35378095e-01
14       7.00000000e-01   -4.79917514e-03    2.54614756e-01
15       7.50000000e-01   -4.82278629e-03    2.73940075e-01
16       8.00000000e-01   -4.84478145e-03    2.93345495e-01
17       8.50000000e-01   -4.86533287e-03    3.12823817e-01
18       9.00000000e-01   -4.88459139e-03    3.32368984e-01
19       9.50000000e-01   -4.90268949e-03    3.51975893e-01
20       1.00000000e+00   -4.91974382e-03    3.71640239e-01
21       1.05000000e+00   -4.93585735e-03    3.91358391e-01
22       1.10000000e+00   -4.95112122e-03    4.11127285e-01
23       1.15000000e+00   -4.96561630e-03    4.30944337e-01
24       1.20000000e+00   -4.97941456e-03    4.50807372e-01
25       1.25000000e+00   -4.99257974e-03    4.70714544e-01
26       1.30000000e+00   -5.00516927e-03    4.90664316e-01
27       1.35000000e+00   -5.01723418e-03    5.10655382e-01
28       1.40000000e+00   -5.02882022e-03    5.30686648e-01
29       1.45000000e+00   -5.03996847e-03    5.50757192e-01
30       1.50000000e+00   -5.05071581e-03    5.70866239e-01
31       1.55000000e+00   -5.06109544e-03    5.91013138e-01
32       1.60000000e+00   -5.07113723e-03    6.11197340e-01
33       1.65000000e+00   -5.08086814e-03    6.31418380e-01
34       1.70000000e+00   -5.09031252e-03    6.51675863e-01
35       1.75000000e+00   -5.09949235e-03    6.71969454e-01
36       1.80000000e+00   -5.10842753e-03    6.92298860e-01
37       1.85000000e+00   -5.11713604e-03    7.12663827e-01
38       1.90000000e+00   -5.12563419e-03    7.33064129e-01
39       1.95000000e+00   -5.13393674e-03    7.53499557e-01
40       2.00000000e+00   -5.14205709e-03    7.73969920e-01
41       2.05000000e+00   -5.15000735e-03    7.94475034e-01
42       2.10000000e+00   -5.15779852e-03    8.15014715e-01
43       2.15000000e+00   -5.16544058e-03    8.35588783e-01
44       2.20000000e+00   -5.17294254e-03    8.56197048e-01
45       2.25000000e+00   -5.18031258e-03    8.76839314e-01
46       2.30000000e+00   -5.18755810e-03    8.97515372e-01
47       2.35000000e+00   -5.19468576e-03    9.18224999e-01
48       2.40000000e+00   -5.20170160e-03    9.38967953e-01
49       2.45000000e+00   -5.20861105e-03    9.59743976e-01
50       2.50000000e+00   -5.21541900e-03    9.80552785e-01
51       2.55000000e+00   -5.22212981e-03    1.00139408e+00
52       2.60000000e+00   -5.22874742e-03    1.02226752e+00
53       2.65000000e+00   -5.23527531e-03    1.04317277e+00
54       2.70000000e+00   -5.24171660e-03    1.06410943e+00
55       2.75000000e+00   -5.24807403e-03    1.08507711e+00
56       2.80000000e+00   -5.25435002e-03    1.10607536e+00
57       2.85000000e+00   -5.26054670e-03    1.12710373e+00
58       2.90000000e+00   -5.26666591e-03    1.14816173e+00
59       2.95000000e+00   -5.27270927e-03    1.16924884e+00
60       3.00000000e+00   -5.27867816e-03    1.19036451e+00
61       3.05000000e+00   -5.28457374e-03    1.21150818e+00
62       3.10000000e+00   -5.29039702e-03    1.23267926e+00
63       3.15000000e+00   -5.29614884e-03    1.25387712e+00
64       3.20000000e+00   -5.30182990e-03    1.27510114e+00
65       3.25000000e+00   -5.30744078e-03    1.29635067e+00
66       3.30000000e+00   -5.31298195e-03    1.31762502e+00
67       3.35000000e+00   -5.31845382e-03    1.33892351e+00
68       3.40000000e+00   -5.32385672e-03    1.36024546e+00
69       3.45000000e+00   -5.32919091e-03    1.38159015e+00
70       3.50000000e+00   -5.33445666e-03    1.40295688e+00
71       3.55000000e+00   -5.33965418e-03    1.42434493e+00
72       3.60000000e+00   -5.34478369e-03    1.44575360e+00
73       3.65000000e+00   -5.34984544e-03    1.46718219e+00
74       3.70000000e+00   -5.35483966e-03    1.48863001e+00
75       3.75000000e+00   -5.35976663e-03    1.51009636e+00
76       3.80000000e+00   -5.36462669e-03    1.53158060e+00
77       3.85000000e+00   -5.36942021e-03    1.55308208e+00
78       3.90000000e+00   -5.37414762e-03    1.57460016e+00
79       3.95000000e+00   -5.37880941e-03    1.59613427e+00
80       4.00000000e+00   -5.38340616e-03    1.61768382e+00
81       4.05000000e+00   -5.38793850e-03    1.63924828e+00
82       4.10000000e+00   -5.39240715e-03    1.66082715e+00
83       4.15000000e+00   -5.39681290e-03    1.68241995e+00
84       4.20000000e+00   -5.40115663e-03    1.70402627e+00
85       4.25000000e+00   -5.40543929e-03    1.72564569e+00
86       4.30000000e+00   -5.40966188e-03    1.74727786e+00
87       4.35000000e+00   -5.41382552e-03    1.76892246e+00
88       4.40000000e+00   -5.41793135e-03    1.79057921e+00
89       4.45000000e+00   -5.42198061e-03    1.81224788e+00
90       4.50000000e+00   -5.42597457e-03    1.83392825e+00
91       4.55000000e+00   -5.42991457e-03    1.85562016e+00
92       4.60000000e+00   -5.43380198e-03    1.87732348e+00
93       4.65000000e+00   -5.43763824e-03    1.89903811e+00
94       4.70000000e+00   -5.44142477e-03    1.92076399e+00
95       4.75000000e+00   -5.44516308e-03    1.94250108e+00
96       4.80000000e+00   -5.44885464e-03    1.96424938e+00
97       4.85000000e+00   -5.45250098e-03    1.98600892e+00
98       4.90000000e+00   -5.45610361e-03    2.00777974e+00
99       4.95000000e+00   -5.45966406e-03    2.02956192e+00
100      5.00000000e+00   -5.46318383e-03    2.05135555e+00


0        0.00000000e+00    3.93658441e-06    3.21010057e-03
1        5.00000000e-02   -9.76955467e-05    3.79438144e-03
2        1.00000000e-01   -5.36369059e-04    7.64467410e-03
3        1.50000000e-01   -1.53670156e-03    2.10604780e-02
4        2.00000000e-01   -2.89363733e-03    4.72909006e-02
5        2.50000000e-01   -4.27746760e-03    8.41753914e-02
6        3.00000000e-01   -5.38031837e-03    1.25088907e-01
7        3.50000000e-01   -5.96846932e-03    1.60732164e-01
8        4.00000000e-01   -6.16950970e-03    1.89153314e-01
9        4.50000000e-01   -6.24785110e-03    2.14935284e-01
10       5.00000000e-01   -6.30048373e-03    2.40339604e-01
11       5.50000000e-01   -6.34620277e-03    2.65853240e-01
12       6.00000000e-01   -6.38830445e-03    2.91546893e-01
13       6.50000000e-01   -6.42757457e-03    3.17418203e-01
14       7.00000000e-01   -6.46438300e-03    3.43454744e-01
15       7.50000000e-01   -6.49900626e-03    3.69644383e-01
16       8.00000000e-01   -6.53167871e-03    3.95976602e-01
17       8.50000000e-01   -6.56260334e-03    4.22442401e-01
18       9.00000000e-01   -6.59195660e-03    4.49034032e-01
19       9.50000000e-01   -6.61989219e-03    4.75744770e-01
20       1.00000000e+00   -6.64654428e-03    5.02568734e-01
21       1.05000000e+00   -6.67203038e-03    5.29500739e-01
22       1.10000000e+00   -6.69645373e-03    5.56536189e-01
23       1.15000000e+00   -6.71990534e-03    5.83670979e-01
24       1.20000000e+00   -6.74246574e-03    6.10901427e-01
25       1.25000000e+00   -6.76420646e-03    6.38224213e-01
26       1.30000000e+00   -6.78519119e-03    6.65636329e-01
27       1.35000000e+00   -6.80547690e-03    6.93135038e-01
28       1.40000000e+00   -6.82511468e-03    7.20717843e-01
29       1.45000000e+00   -6.84415050e-03    7.48382454e-01
30       1.50000000e+00   -6.86262586e-03    7.76126767e-01
31       1.55000000e+00   -6.88057832e-03    8.03948847e-01
32       1.60000000e+00   -6.89804192e-03    8.31846897e-01
33       1.65000000e+00   -6.91504774e-03    8.59819262e-01
34       1.70000000e+00   -6.93162409e-03    8.87864404e-01
35       1.75000000e+00   -6.94779688e-03    9.15980890e-01
36       1.80000000e+00   -6.96358986e-03    9.44167390e-01
37       1.85000000e+00   -6.97902488e-03    9.72422662e-01
38       1.90000000e+00   -6.99412206e-03    1.00074555e+00
39       1.95000000e+00   -7.00890000e-03    1.02913496e+00
40       2.00000000e+00   -7.02337587e-03    1.05758990e+00
41       2.05000000e+00   -7.03756563e-03    1.08610940e+00
42       2.10000000e+00   -7.05148406e-03    1.11469259e+00
43       2.15000000e+00   -7.06514496e-03    1.14333864e+00
44       2.20000000e+00   -7.07856117e-03    1.17204676e+00
45       2.25000000e+00   -7.09174467e-03    1.20081623e+00
46       2.30000000e+00   -7.10470668e-03    1.22964636e+00
47       2.35000000e+00   -7.11745772e-03    1.25853651e+00
48       2.40000000e+00   -7.13000762e-03    1.28748610e+00
49       2.45000000e+00   -7.14236566e-03    1.31649454e+00
50       2.50000000e+00   -7.15454055e-03    1.34556133e+00
51       2.55000000e+00   -7.16654047e-03    1.37468596e+00
52       2.60000000e+00   -7.17837318e-03    1.40386798e+00
53       2.65000000e+00   -7.19004597e-03    1.43310696e+00
54       2.70000000e+00   -7.20156574e-03    1.46240249e+00
55       2.75000000e+00   -7.21293901e-03    1.49175420e+00
56       2.80000000e+00   -7.22417198e-03    1.52116175e+00
57       2.85000000e+00   -7.23527050e-03    1.55062480e+00
58       2.90000000e+00   -7.24624012e-03    1.58014305e+00
59       2.95000000e+00   -7.25708612e-03    1.60971622e+00
60       3.00000000e+00   -7.26781350e-03    1.63934404e+00
61       3.05000000e+00   -7.27842702e-03    1.66902627e+00
62       3.10000000e+00   -7.28893122e-03    1.69876268e+00
63       3.15000000e+00   -7.29933039e-03    1.72855305e+00
64       3.20000000e+00   -7.30962864e-03    1.75839720e+00
65       3.25000000e+00   -7.31982986e-03    1.78829493e+00
66       3.30000000e+00   -7.32993777e-03    1.81824607e+00
67       3.35000000e+00   -7.33995591e-03    1.84825046e+00
68       3.40000000e+00   -7.34988764e-03    1.87830795e+00
69       3.45000000e+00   -7.35973617e-03    1.90841841e+00
70       3.50000000e+00   -7.36950457e-03    1.93858169e+00
71       3.55000000e+00   -7.37919575e-03    1.96879766e+00
72       3.60000000e+00   -7.38881246e-03    1.99906622e+00
73       3.65000000e+00   -7.39835736e-03    2.02938724e+00
74       3.70000000e+00   -7.40783294e-03    2.05976061e+00
75       3.75000000e+00   -7.41724160e-03    2.09018622e+00
76       3.80000000e+00   -7.42658559e-03    2.12066397e+00
77       3.85000000e+00   -7.43586707e-03    2.15119374e+00
78       3.90000000e+00   -7.44508806e-03    2.18177543e+00
79       3.95000000e+00   -7.45425050e-03    2.21240893e+00
80       4.00000000e+00   -7.46335620e-03    2.24309413e+00
81       4.05000000e+00   -7.47240688e-03    2.27383090e+00
82       4.10000000e+00   -7.48140417e-03    2.30461914e+00
83       4.15000000e+00   -7.49034957e-03    2.33545870e+00
84       4.20000000e+00   -7.49924452e-03    2.36634946e+00
85       4.25000000e+00   -7.50809033e-03    2.39729126e+00
86       4.30000000e+00   -7.51688825e-03    2.42828397e+00
87       4.35000000e+00   -7.52563941e-03    2.45932740e+00
88       4.40000000e+00   -7.53434487e-03    2.49042138e+00
89       4.45000000e+00   -7.54300559e-03    2.52156573e+00
90       4.50000000e+00   -7.55162246e-03    2.55276022e+00
91       4.55000000e+00   -7.56019625e-03    2.58400465e+00
92       4.60000000e+00   -7.56872769e-03    2.61529876e+00
93       4.65000000e+00   -7.57721738e-03    2.64664229e+00
94       4.70000000e+00   -7.58566587e-03    2.67803498e+00
95       4.75000000e+00   -7.59407360e-03    2.70947651e+00
96       4.80000000e+00   -7.60244096e-03    2.74096656e+00
97       4.85000000e+00   -7.61076823e-03    2.77250478e+00
98       4.90000000e+00   -7.61905562e-03    2.80409080e+00
99       4.95000000e+00   -7.62730327e-03    2.83572422e+00
100      5.00000000e+00   -7.63551123e-03    2.86740461e+00


0        0.00000000e+00    5.38657586e-06    4.33049998e-03
1        5.00000000e-02   -1.28557515e-04    5.10074039e-03
2        1.00000000e-01   -6.61992312e-04    9.83562500e-03
3        1.50000000e-01   -1.78094452e-03    2.51018216e-02
4        2.00000000e-01   -3.25422645e-03    5.40312826e-02
5        2.50000000e-01   -4.79259951e-03    9.52005562e-02
6        3.00000000e-01   -6.15133992e-03    1.43836858e-01
7        3.50000000e-01   -7.06992393e-03    1.91073732e-01
8        4.00000000e-01   -7.46653336e-03    2.29506128e-01
9        4.50000000e-01   -7.60239503e-03    2.62096941e-01
10       5.00000000e-01   -7.67371152e-03    2.93282565e-01
11       5.50000000e-01   -7.73090553e-03    3.24419795e-01
12       6.00000000e-01   -7.78297389e-03    3.55755126e-01
13       6.50000000e-01   -7.83163005e-03    3.87314514e-01
14       7.00000000e-01   -7.87741405e-03    4.19087947e-01
15       7.50000000e-01   -7.92065610e-03    4.51061697e-01
16       8.00000000e-01   -7.96162546e-03    4.83223331e-01
17       8.50000000e-01   -8.00055634e-03    5.15562161e-01
18       9.00000000e-01   -8.03765062e-03    5.48068997e-01
19       9.50000000e-01   -8.07308625e-03    5.80735886e-01
20       1.00000000e+00   -8.10702165e-03    6.13555911e-01
21       1.05000000e+00   -8.13959276e-03    6.46522972e-01
22       1.10000000e+00   -8.17092013e-03    6.79631669e-01
23       1.15000000e+00   -8.20111014e-03    7.12877189e-01
24       1.20000000e+00   -8.23025692e-03    7.46255212e-01
25       1.25000000e+00   -8.25844405e-03    7.79761838e-01
26       1.30000000e+00   -8.28574593e-03    8.13393529e-01
27       1.35000000e+00   -8.31222905e-03    8.47147058e-01
28       1.40000000e+00   -8.33795294e-03    8.81019469e-01
